Time [s], Analyzer Name, Decoded Protocol Result
2.574875000000000,I2C,Setup Read to [0xA1] + ACK
2.575020000000000,I2C,0x00 + NAK
2.575220000000000,I2C,Setup Read to [0xA1] + ACK
2.575380000000000,I2C,0xFF + NAK
2.575630000000000,I2C,Setup Write to [0xA0] + ACK
2.575740000000000,I2C,0x00 + ACK
2.575865000000000,I2C,Setup Read to [0xA1] + ACK
2.575980000000000,I2C,0x00 + ACK
2.576100000000000,I2C,0xFF + ACK
2.576220000000000,I2C,0xFF + ACK
2.576340000000000,I2C,0xFF + ACK
2.576460000000000,I2C,0xFF + ACK
2.576580000000000,I2C,0xFF + ACK
2.576700000000000,I2C,0xFF + ACK
2.576820000000000,I2C,0x00 + ACK
2.576940000000000,I2C,0x22 + ACK
2.577060000000000,I2C,0x64 + ACK
2.577180000000000,I2C,0xA3 + ACK
2.577300000000000,I2C,0x1C + ACK
2.577420000000000,I2C,0xC7 + ACK
2.577540000000000,I2C,0xC5 + ACK
2.577660000000000,I2C,0x00 + ACK
2.577780000000000,I2C,0x00 + ACK
2.577900000000000,I2C,0x25 + ACK
2.578020000000000,I2C,0x11 + ACK
2.578140000000000,I2C,0x01 + ACK
2.578260000000000,I2C,0x03 + ACK
2.578380000000000,I2C,0x81 + ACK
2.578500000000000,I2C,0x2F + ACK
2.578620000000000,I2C,0x1D + ACK
2.578740000000000,I2C,0x78 + ACK
2.578860000000000,I2C,0x2A + ACK
2.578980000000000,I2C,0xE5 + ACK
2.579100000000000,I2C,0x25 + ACK
2.579220000000000,I2C,0xA6 + ACK
2.579340000000000,I2C,0x54 + ACK
2.579460000000000,I2C,0x44 + ACK
2.579580000000000,I2C,0xA1 + ACK
2.579700000000000,I2C,0x25 + ACK
2.579820000000000,I2C,0x14 + ACK
2.579940000000000,I2C,0x50 + ACK
2.580060000000000,I2C,0x54 + ACK
2.580180000000000,I2C,0xBF + ACK
2.580300000000000,I2C,0xEF + ACK
2.580420000000000,I2C,0x80 + ACK
2.580540000000000,I2C,0x81 + ACK
2.580660000000000,I2C,0x80 + ACK
2.580780000000000,I2C,0x71 + ACK
2.580900000000000,I2C,0x4F + ACK
2.581020000000000,I2C,0x81 + ACK
2.581140000000000,I2C,0x40 + ACK
2.581260000000000,I2C,0x95 + ACK
2.581380000000000,I2C,0x0F + ACK
2.581500000000000,I2C,0x95 + ACK
2.581620000000000,I2C,0x00 + ACK
2.581740000000000,I2C,0xA9 + ACK
2.581860000000000,I2C,0x40 + ACK
2.581980000000000,I2C,0x01 + ACK
2.582100000000000,I2C,0x01 + ACK
2.582220000000000,I2C,0x01 + ACK
2.582340000000000,I2C,0x01 + ACK
2.582460000000000,I2C,0x21 + ACK
2.582580000000000,I2C,0x39 + ACK
2.582700000000000,I2C,0x90 + ACK
2.582820000000000,I2C,0x30 + ACK
2.582940000000000,I2C,0x62 + ACK
2.583060000000000,I2C,0x1A + ACK
2.583180000000000,I2C,0x27 + ACK
2.583300000000000,I2C,0x40 + ACK
2.583420000000000,I2C,0x68 + ACK
2.583540000000000,I2C,0xB0 + ACK
2.583660000000000,I2C,0x36 + ACK
2.583780000000000,I2C,0x00 + ACK
2.583900000000000,I2C,0xE0 + ACK
2.584020000000000,I2C,0x0E + ACK
2.584140000000000,I2C,0x11 + ACK
2.584260000000000,I2C,0x00 + ACK
2.584380000000000,I2C,0x00 + ACK
2.584500000000000,I2C,0x1C + ACK
2.584620000000000,I2C,0x00 + ACK
2.584740000000000,I2C,0x00 + ACK
2.584860000000000,I2C,0x00 + ACK
2.584980000000000,I2C,0xFF + ACK
2.585100000000000,I2C,0x00 + ACK
2.585220000000000,I2C,0x37 + ACK
2.585340000000000,I2C,0x33 + ACK
2.585460000000000,I2C,0x37 + ACK
2.585580000000000,I2C,0x4D + ACK
2.585700000000000,I2C,0x48 + ACK
2.585820000000000,I2C,0x33 + ACK
2.585940000000000,I2C,0x4A + ACK
2.586060000000000,I2C,0x59 + ACK
2.586180000000000,I2C,0x35 + ACK
2.586300000000000,I2C,0x30 + ACK
2.586420000000000,I2C,0x36 + ACK
2.586545000000000,I2C,0x33 + ACK
2.586665000000000,I2C,0x31 + ACK
2.586785000000000,I2C,0x00 + ACK
2.586905000000000,I2C,0x00 + ACK
2.587025000000000,I2C,0x00 + ACK
2.587145000000000,I2C,0xFD + ACK
2.587265000000000,I2C,0x00 + ACK
2.587385000000000,I2C,0x32 + ACK
2.587505000000000,I2C,0x4B + ACK
2.587625000000000,I2C,0x1E + ACK
2.587745000000000,I2C,0x52 + ACK
2.587865000000000,I2C,0x0F + ACK
2.587985000000000,I2C,0x00 + ACK
2.588105000000000,I2C,0x0A + ACK
2.588225000000000,I2C,0x20 + ACK
2.588345000000000,I2C,0x20 + ACK
2.588465000000000,I2C,0x20 + ACK
2.588585000000000,I2C,0x20 + ACK
2.588705000000000,I2C,0x20 + ACK
2.588825000000000,I2C,0x20 + ACK
2.588945000000000,I2C,0x00 + ACK
2.589065000000000,I2C,0x00 + ACK
2.589185000000000,I2C,0x00 + ACK
2.589305000000000,I2C,0xFC + ACK
2.589425000000000,I2C,0x00 + ACK
2.589545000000000,I2C,0x48 + ACK
2.589665000000000,I2C,0x47 + ACK
2.589785000000000,I2C,0x32 + ACK
2.589905000000000,I2C,0x31 + ACK
2.590025000000000,I2C,0x36 + ACK
2.590145000000000,I2C,0x0A + ACK
2.590265000000000,I2C,0x20 + ACK
2.590385000000000,I2C,0x20 + ACK
2.590505000000000,I2C,0x20 + ACK
2.590625000000000,I2C,0x20 + ACK
2.590745000000000,I2C,0x20 + ACK
2.590865000000000,I2C,0x20 + ACK
2.590985000000000,I2C,0x20 + ACK
2.591105000000000,I2C,0x01 + ACK
2.591225000000000,I2C,0xAE + NAK
2.591485000000000,I2C,Setup Write to [0xA0] + ACK
2.591595000000000,I2C,0x80 + ACK
2.591725000000000,I2C,Setup Read to [0xA1] + ACK
2.591835000000000,I2C,0x02 + ACK
2.591955000000000,I2C,0x03 + ACK
2.592075000000000,I2C,0x1C + ACK
2.592195000000000,I2C,0xF1 + ACK
2.592315000000000,I2C,0x49 + ACK
2.592435000000000,I2C,0x85 + ACK
2.592555000000000,I2C,0x04 + ACK
2.592675000000000,I2C,0x03 + ACK
2.592795000000000,I2C,0x01 + ACK
2.592915000000000,I2C,0x06 + ACK
2.593035000000000,I2C,0x07 + ACK
2.593155000000000,I2C,0x14 + ACK
2.593275000000000,I2C,0x13 + ACK
2.593395000000000,I2C,0x12 + ACK
2.593515000000000,I2C,0x23 + ACK
2.593635000000000,I2C,0x09 + ACK
2.593755000000000,I2C,0x07 + ACK
2.593875000000000,I2C,0x01 + ACK
2.593995000000000,I2C,0x83 + ACK
2.594115000000000,I2C,0x01 + ACK
2.594235000000000,I2C,0x00 + ACK
2.594355000000000,I2C,0x00 + ACK
2.594475000000000,I2C,0x65 + ACK
2.594595000000000,I2C,0x03 + ACK
2.594715000000000,I2C,0x0C + ACK
2.594835000000000,I2C,0x00 + ACK
2.594970000000000,I2C,0x10 + ACK
2.595090000000000,I2C,0x00 + ACK
2.595210000000000,I2C,0x01 + ACK
2.595330000000000,I2C,0x1D + ACK
2.595455000000000,I2C,0x00 + ACK
2.595570000000000,I2C,0x72 + ACK
2.595690000000000,I2C,0x51 + ACK
2.595810000000000,I2C,0xD0 + ACK
2.595935000000000,I2C,0x1E + ACK
2.596050000000000,I2C,0x20 + ACK
2.596175000000000,I2C,0x6E + ACK
2.596290000000000,I2C,0x28 + ACK
2.596415000000000,I2C,0x55 + ACK
2.596530000000000,I2C,0x00 + ACK
2.596655000000000,I2C,0xE0 + ACK
2.596770000000000,I2C,0x0E + ACK
2.596890000000000,I2C,0x11 + ACK
2.597010000000000,I2C,0x00 + ACK
2.597130000000000,I2C,0x00 + ACK
2.597250000000000,I2C,0x1E + ACK
2.597375000000000,I2C,0x01 + ACK
2.597490000000000,I2C,0x1D + ACK
2.597615000000000,I2C,0x80 + ACK
2.597730000000000,I2C,0x18 + ACK
2.597855000000000,I2C,0x71 + ACK
2.597970000000000,I2C,0x1C + ACK
2.598095000000000,I2C,0x16 + ACK
2.598210000000000,I2C,0x20 + ACK
2.598335000000000,I2C,0x58 + ACK
2.598450000000000,I2C,0x2C + ACK
2.598575000000000,I2C,0x25 + ACK
2.598690000000000,I2C,0x00 + ACK
2.598815000000000,I2C,0xE0 + ACK
2.598930000000000,I2C,0x0E + ACK
2.599050000000000,I2C,0x11 + ACK
2.599170000000000,I2C,0x00 + ACK
2.599295000000000,I2C,0x00 + ACK
2.599410000000000,I2C,0x9E + ACK
2.599535000000000,I2C,0x8C + ACK
2.599650000000000,I2C,0x0A + ACK
2.599775000000000,I2C,0xD0 + ACK
2.599890000000000,I2C,0x8A + ACK
2.600010000000000,I2C,0x20 + ACK
2.600130000000000,I2C,0xE0 + ACK
2.600255000000000,I2C,0x2D + ACK
2.600370000000000,I2C,0x10 + ACK
2.600495000000000,I2C,0x10 + ACK
2.600610000000000,I2C,0x3E + ACK
2.600735000000000,I2C,0x96 + ACK
2.600850000000000,I2C,0x00 + ACK
2.600975000000000,I2C,0xE0 + ACK
2.601090000000000,I2C,0x0E + ACK
2.601215000000000,I2C,0x11 + ACK
2.601335000000000,I2C,0x00 + ACK
2.601455000000000,I2C,0x00 + ACK
2.601575000000000,I2C,0x18 + ACK
2.601695000000000,I2C,0x8C + ACK
2.601815000000000,I2C,0x0A + ACK
2.601935000000000,I2C,0xA0 + ACK
2.602055000000000,I2C,0x14 + ACK
2.602175000000000,I2C,0x51 + ACK
2.602295000000000,I2C,0xF0 + ACK
2.602415000000000,I2C,0x16 + ACK
2.602535000000000,I2C,0x00 + ACK
2.602655000000000,I2C,0x26 + ACK
2.602775000000000,I2C,0x7C + ACK
2.602895000000000,I2C,0x43 + ACK
2.603015000000000,I2C,0x00 + ACK
2.603135000000000,I2C,0xE0 + ACK
2.603255000000000,I2C,0x0E + ACK
2.603375000000000,I2C,0x11 + ACK
2.603495000000000,I2C,0x00 + ACK
2.603615000000000,I2C,0x00 + ACK
2.603735000000000,I2C,0x98 + ACK
2.603855000000000,I2C,0x00 + ACK
2.603975000000000,I2C,0x00 + ACK
2.604095000000000,I2C,0x00 + ACK
2.604215000000000,I2C,0x00 + ACK
2.604335000000000,I2C,0x00 + ACK
2.604455000000000,I2C,0x00 + ACK
2.604575000000000,I2C,0x00 + ACK
2.604695000000000,I2C,0x00 + ACK
2.604815000000000,I2C,0x00 + ACK
2.604935000000000,I2C,0x00 + ACK
2.605055000000000,I2C,0x00 + ACK
2.605175000000000,I2C,0x00 + ACK
2.605295000000000,I2C,0x00 + ACK
2.605415000000000,I2C,0x00 + ACK
2.605535000000000,I2C,0x00 + ACK
2.605655000000000,I2C,0x00 + ACK
2.605775000000000,I2C,0x00 + ACK
2.605895000000000,I2C,0x00 + ACK
2.606015000000000,I2C,0x00 + ACK
2.606135000000000,I2C,0x00 + ACK
2.606255000000000,I2C,0x00 + ACK
2.606375000000000,I2C,0x00 + ACK
2.606495000000000,I2C,0x00 + ACK
2.606615000000000,I2C,0x00 + ACK
2.606735000000000,I2C,0x00 + ACK
2.606855000000000,I2C,0x00 + ACK
2.606975000000000,I2C,0x00 + ACK
2.607095000000000,I2C,0x9B + NAK
2.607350000000000,I2C,Setup Write to [0x74] + ACK
2.607460000000000,I2C,0x00 + ACK
2.607585000000000,I2C,Setup Read to [0x75] + ACK
2.607700000000000,I2C,0xAC + ACK
2.607820000000000,I2C,0xB8 + ACK
2.607940000000000,I2C,0x1D + ACK
2.608060000000000,I2C,0x78 + ACK
2.608180000000000,I2C,0x66 + NAK
2.608400000000000,I2C,Setup Write to [0x74] + ACK
2.608510000000000,I2C,0x40 + ACK
2.608635000000000,I2C,Setup Read to [0x75] + ACK
2.608750000000000,I2C,0x80 + NAK
2.616180000000000,I2C,Setup Write to [0x74] + ACK
2.616290000000000,I2C,0x00 + ACK
2.616425000000000,I2C,Setup Read to [0x75] + ACK
2.616535000000000,I2C,0xAC + ACK
2.616655000000000,I2C,0xB8 + ACK
2.616775000000000,I2C,0x1D + ACK
2.616895000000000,I2C,0x78 + ACK
2.617015000000000,I2C,0x66 + NAK
2.617235000000000,I2C,Setup Write to [0x74] + ACK
2.617345000000000,I2C,0x40 + ACK
2.617475000000000,I2C,Setup Read to [0x75] + ACK
2.617585000000000,I2C,0x80 + NAK
2.844050000000000,I2C,Setup Write to [0x74] + ACK
2.844155000000000,I2C,0x00 + ACK
2.844290000000000,I2C,Setup Read to [0x75] + ACK
2.844400000000000,I2C,0xAC + ACK
2.844520000000000,I2C,0xB8 + ACK
2.844640000000000,I2C,0x1D + ACK
2.844760000000000,I2C,0x78 + ACK
2.844880000000000,I2C,0x66 + NAK
2.845110000000000,I2C,Setup Write to [0x74] + ACK
2.845220000000000,I2C,0x40 + ACK
2.845350000000000,I2C,Setup Read to [0x75] + ACK
2.845460000000000,I2C,0x80 + NAK
2.910770000000000,I2C,Setup Write to [0x74] + ACK
2.910880000000000,I2C,0x00 + ACK
2.911010000000000,I2C,Setup Read to [0x75] + ACK
2.911120000000000,I2C,0xAC + ACK
2.911240000000000,I2C,0xB8 + ACK
2.911360000000000,I2C,0x1D + ACK
2.911480000000000,I2C,0x78 + ACK
2.911600000000000,I2C,0x66 + NAK
2.911820000000000,I2C,Setup Write to [0x74] + ACK
2.911930000000000,I2C,0x40 + ACK
2.912060000000000,I2C,Setup Read to [0x75] + ACK
2.912170000000000,I2C,0x80 + NAK
2.912715000000000,I2C,Setup Write to [0x74] + ACK
2.912825000000000,I2C,0x00 + ACK
2.912950000000000,I2C,Setup Read to [0x75] + ACK
2.913065000000000,I2C,0xAC + ACK
2.913180000000000,I2C,0xB8 + ACK
2.913300000000000,I2C,0x1D + ACK
2.913420000000000,I2C,0x78 + ACK
2.913540000000000,I2C,0x66 + NAK
2.913760000000000,I2C,Setup Write to [0x74] + ACK
2.913870000000000,I2C,0x40 + ACK
2.914000000000000,I2C,Setup Read to [0x75] + ACK
2.914110000000000,I2C,0x80 + NAK
3.121580000000000,I2C,Setup Write to [0x74] + ACK
3.121690000000000,I2C,0x00 + ACK
3.121820000000000,I2C,Setup Read to [0x75] + ACK
3.121935000000000,I2C,0xAC + ACK
3.122050000000000,I2C,0xB8 + ACK
3.122170000000000,I2C,0x1D + ACK
3.122290000000000,I2C,0x78 + ACK
3.122410000000000,I2C,0x66 + NAK
3.122635000000000,I2C,Setup Write to [0x74] + ACK
3.122745000000000,I2C,0x40 + ACK
3.122875000000000,I2C,Setup Read to [0x75] + ACK
3.122985000000000,I2C,0x80 + NAK
3.870540000000000,I2C,Setup Write to [0x74] + ACK
3.870650000000000,I2C,0x00 + ACK
3.870785000000000,I2C,Setup Read to [0x75] + ACK
3.870895000000000,I2C,0xAC + ACK
3.871015000000000,I2C,0xB8 + ACK
3.871135000000000,I2C,0x1D + ACK
3.871255000000000,I2C,0x78 + ACK
3.871375000000000,I2C,0x66 + NAK
3.871610000000000,I2C,Setup Write to [0x74] + ACK
3.871715000000000,I2C,0x40 + ACK
3.871845000000000,I2C,Setup Read to [0x75] + ACK
3.871955000000000,I2C,0x80 + NAK
3.884770000000000,I2C,Setup Write to [0x74] + ACK
3.884880000000000,I2C,0x00 + ACK
3.885010000000000,I2C,Setup Read to [0x75] + ACK
3.885120000000000,I2C,0xAC + ACK
3.885235000000000,I2C,0xB8 + ACK
3.885360000000000,I2C,0x1D + ACK
3.885480000000000,I2C,0x78 + ACK
3.885600000000000,I2C,0x66 + NAK
3.885835000000000,I2C,Setup Write to [0x74] + ACK
3.885950000000000,I2C,0x40 + ACK
3.886075000000000,I2C,Setup Read to [0x75] + ACK
3.886190000000000,I2C,0x80 + NAK
