Time[s], Channel 6, Channel 7
0.000000000000000, 1, 1
1.107512000000000, 0, 1
1.107518000000000, 0, 0
1.107522000000000, 1, 0
1.107526000000000, 1, 1
1.107536000000000, 1, 0
1.107540000000000, 0, 0
1.107544000000000, 0, 1
1.107554000000000, 0, 0
1.107558000000000, 1, 0
1.107562000000000, 1, 1
1.107572000000000, 1, 0
1.107574000000000, 0, 0
1.107578000000000, 0, 1
1.107588000000000, 0, 0
1.107596000000000, 0, 1
1.107604000000000, 0, 0
1.107612000000000, 0, 1
1.107622000000000, 0, 0
1.107628000000000, 0, 1
1.107638000000000, 0, 0
1.107642000000000, 1, 0
1.107646000000000, 1, 1
1.107656000000000, 1, 0
1.107658000000000, 0, 0
1.107666000000000, 0, 1
1.107676000000000, 0, 0
1.107684000000000, 0, 1
1.107694000000000, 0, 0
1.107702000000000, 0, 1
1.107710000000000, 0, 0
1.107718000000000, 0, 1
1.107728000000000, 0, 0
1.107736000000000, 0, 1
1.107746000000000, 0, 0
1.107754000000000, 0, 1
1.107764000000000, 0, 0
1.107772000000000, 0, 1
1.107780000000000, 0, 0
1.107788000000000, 0, 1
1.107798000000000, 0, 0
1.107806000000000, 0, 1
1.107816000000000, 1, 0
1.107824000000000, 1, 1
1.107832000000000, 1, 0
1.107842000000000, 0, 0
1.107846000000000, 0, 1
1.107854000000000, 1, 1
1.107896000000000, 0, 1
1.107902000000000, 0, 0
1.107906000000000, 1, 0
1.107912000000000, 1, 1
1.107920000000000, 1, 0
1.107924000000000, 0, 0
1.107928000000000, 0, 1
1.107938000000000, 0, 0
1.107942000000000, 1, 0
1.107946000000000, 1, 1
1.107956000000000, 1, 0
1.107960000000000, 0, 0
1.107962000000000, 0, 1
1.107972000000000, 0, 0
1.107980000000000, 0, 1
1.107990000000000, 0, 0
1.107996000000000, 0, 1
1.108006000000000, 0, 0
1.108014000000000, 0, 1
1.108022000000000, 0, 0
1.108026000000000, 1, 0
1.108032000000000, 1, 1
1.108040000000000, 1, 0
1.108042000000000, 0, 0
1.108050000000000, 0, 1
1.108060000000000, 1, 0
1.108068000000000, 1, 1
1.108078000000000, 1, 0
1.108086000000000, 1, 1
1.108096000000000, 1, 0
1.108102000000000, 1, 1
1.108112000000000, 1, 0
1.108120000000000, 1, 1
1.108130000000000, 1, 0
1.108138000000000, 1, 1
1.108148000000000, 1, 0
1.108156000000000, 1, 1
1.108164000000000, 1, 0
1.108172000000000, 1, 1
1.108182000000000, 1, 0
1.108190000000000, 1, 1
1.108200000000000, 1, 0
1.108208000000000, 1, 1
1.108216000000000, 1, 0
1.108226000000000, 0, 0
1.108230000000000, 0, 1
1.108238000000000, 1, 1
1.108334000000000, 0, 1
1.108338000000000, 0, 0
1.108342000000000, 1, 0
1.108346000000000, 1, 1
1.108350000000000, 1, 0
1.108352000000000, 0, 0
1.108356000000000, 0, 1
1.108364000000000, 0, 0
1.108366000000000, 1, 0
1.108370000000000, 1, 1
1.108376000000000, 1, 0
1.108378000000000, 0, 0
1.108382000000000, 0, 1
1.108386000000000, 0, 0
1.108394000000000, 0, 1
1.108398000000000, 0, 0
1.108406000000000, 0, 1
1.108410000000000, 0, 0
1.108416000000000, 0, 1
1.108424000000000, 0, 0
1.108430000000000, 0, 1
1.108436000000000, 0, 0
1.108442000000000, 0, 1
1.108448000000000, 1, 0
1.108454000000000, 0, 0
1.108456000000000, 0, 1
1.108462000000000, 0, 0
1.108468000000000, 0, 1
1.108474000000000, 0, 0
1.108480000000000, 0, 1
1.108486000000000, 0, 0
1.108492000000000, 0, 1
1.108496000000000, 0, 0
1.108502000000000, 0, 1
1.108508000000000, 0, 0
1.108516000000000, 0, 1
1.108522000000000, 0, 0
1.108528000000000, 0, 1
1.108534000000000, 0, 0
1.108540000000000, 0, 1
1.108544000000000, 0, 0
1.108552000000000, 0, 1
1.108558000000000, 1, 0
1.108566000000000, 1, 1
1.108574000000000, 0, 1
1.108578000000000, 0, 0
1.108582000000000, 1, 0
1.108586000000000, 1, 1
1.108590000000000, 1, 0
1.108594000000000, 0, 0
1.108596000000000, 0, 1
1.108604000000000, 0, 0
1.108606000000000, 1, 0
1.108610000000000, 1, 1
1.108616000000000, 1, 0
1.108618000000000, 0, 0
1.108622000000000, 0, 1
1.108626000000000, 0, 0
1.108634000000000, 0, 1
1.108640000000000, 0, 0
1.108646000000000, 0, 1
1.108650000000000, 0, 0
1.108656000000000, 0, 1
1.108664000000000, 0, 0
1.108666000000000, 1, 0
1.108670000000000, 1, 1
1.108676000000000, 0, 0
1.108682000000000, 0, 1
1.108688000000000, 0, 0
1.108698000000000, 0, 1
1.108704000000000, 0, 0
1.108710000000000, 0, 1
1.108716000000000, 0, 0
1.108724000000000, 0, 1
1.108730000000000, 0, 0
1.108736000000000, 0, 1
1.108742000000000, 0, 0
1.108750000000000, 0, 1
1.108758000000000, 0, 0
1.108764000000000, 0, 1
1.108770000000000, 0, 0
1.108776000000000, 0, 1
1.108784000000000, 0, 0
1.108790000000000, 0, 1
1.108796000000000, 1, 0
1.108800000000000, 0, 0
1.108802000000000, 0, 1
1.108810000000000, 0, 0
1.108814000000000, 1, 0
1.108818000000000, 1, 1
1.108824000000000, 1, 0
1.108830000000000, 1, 1
1.108836000000000, 1, 0
1.108844000000000, 1, 1
1.108850000000000, 1, 0
1.108856000000000, 1, 1
1.108862000000000, 1, 0
1.108870000000000, 1, 1
1.108878000000000, 1, 0
1.108884000000000, 1, 1
1.108890000000000, 1, 0
1.108896000000000, 1, 1
1.108904000000000, 1, 0
1.108910000000000, 1, 1
1.108916000000000, 1, 0
1.108920000000000, 0, 0
1.108922000000000, 0, 1
1.108930000000000, 0, 0
1.108934000000000, 1, 0
1.108938000000000, 1, 1
1.108944000000000, 1, 0
1.108950000000000, 1, 1
1.108956000000000, 1, 0
1.108964000000000, 1, 1
1.108970000000000, 1, 0
1.108976000000000, 1, 1
1.108982000000000, 1, 0
1.108990000000000, 1, 1
1.108998000000000, 1, 0
1.109004000000000, 1, 1
1.109010000000000, 1, 0
1.109016000000000, 1, 1
1.109024000000000, 1, 0
1.109030000000000, 1, 1
1.109036000000000, 1, 0
1.109040000000000, 0, 0
1.109042000000000, 0, 1
1.109050000000000, 0, 0
1.109054000000000, 1, 0
1.109058000000000, 1, 1
1.109064000000000, 1, 0
1.109070000000000, 1, 1
1.109076000000000, 1, 0
1.109084000000000, 1, 1
1.109090000000000, 1, 0
1.109096000000000, 1, 1
1.109102000000000, 1, 0
1.109110000000000, 1, 1
1.109118000000000, 1, 0
1.109124000000000, 1, 1
1.109130000000000, 1, 0
1.109138000000000, 1, 1
1.109144000000000, 1, 0
1.109150000000000, 1, 1
1.109156000000000, 1, 0
1.109160000000000, 0, 0
1.109162000000000, 0, 1
1.109170000000000, 0, 0
1.109174000000000, 1, 0
1.109178000000000, 1, 1
1.109184000000000, 1, 0
1.109190000000000, 1, 1
1.109196000000000, 1, 0
1.109204000000000, 1, 1
1.109210000000000, 1, 0
1.109216000000000, 1, 1
1.109224000000000, 1, 0
1.109230000000000, 1, 1
1.109238000000000, 1, 0
1.109244000000000, 1, 1
1.109250000000000, 1, 0
1.109258000000000, 1, 1
1.109264000000000, 1, 0
1.109270000000000, 1, 1
1.109276000000000, 1, 0
1.109280000000000, 0, 0
1.109282000000000, 0, 1
1.109290000000000, 0, 0
1.109294000000000, 1, 0
1.109298000000000, 1, 1
1.109304000000000, 1, 0
1.109310000000000, 1, 1
1.109316000000000, 1, 0
1.109324000000000, 1, 1
1.109330000000000, 1, 0
1.109336000000000, 1, 1
1.109344000000000, 1, 0
1.109350000000000, 1, 1
1.109358000000000, 1, 0
1.109364000000000, 1, 1
1.109370000000000, 1, 0
1.109378000000000, 1, 1
1.109384000000000, 1, 0
1.109390000000000, 1, 1
1.109396000000000, 1, 0
1.109400000000000, 0, 0
1.109402000000000, 0, 1
1.109410000000000, 0, 0
1.109414000000000, 1, 0
1.109418000000000, 1, 1
1.109424000000000, 1, 0
1.109430000000000, 1, 1
1.109436000000000, 1, 0
1.109444000000000, 1, 1
1.109450000000000, 1, 0
1.109456000000000, 1, 1
1.109464000000000, 1, 0
1.109470000000000, 1, 1
1.109478000000000, 1, 0
1.109484000000000, 1, 1
1.109490000000000, 1, 0
1.109498000000000, 1, 1
1.109504000000000, 1, 0
1.109510000000000, 1, 1
1.109516000000000, 1, 0
1.109520000000000, 0, 0
1.109522000000000, 0, 1
1.109530000000000, 0, 0
1.109538000000000, 0, 1
1.109544000000000, 0, 0
1.109550000000000, 0, 1
1.109556000000000, 0, 0
1.109564000000000, 0, 1
1.109570000000000, 0, 0
1.109576000000000, 0, 1
1.109584000000000, 0, 0
1.109590000000000, 0, 1
1.109598000000000, 0, 0
1.109604000000000, 0, 1
1.109610000000000, 0, 0
1.109618000000000, 0, 1
1.109624000000000, 0, 0
1.109630000000000, 0, 1
1.109636000000000, 0, 0
1.109638000000000, 1, 0
1.109640000000000, 0, 0
1.109642000000000, 0, 1
1.109650000000000, 0, 0
1.109658000000000, 0, 1
1.109664000000000, 0, 0
1.109670000000000, 0, 1
1.109676000000000, 0, 0
1.109678000000000, 1, 0
1.109684000000000, 1, 1
1.109690000000000, 1, 0
1.109692000000000, 0, 0
1.109696000000000, 0, 1
1.109704000000000, 0, 0
1.109710000000000, 0, 1
1.109718000000000, 0, 0
1.109724000000000, 0, 1
1.109730000000000, 0, 0
1.109732000000000, 1, 0
1.109738000000000, 1, 1
1.109744000000000, 0, 0
1.109750000000000, 0, 1
1.109756000000000, 0, 0
1.109758000000000, 1, 0
1.109760000000000, 0, 0
1.109764000000000, 0, 1
1.109770000000000, 0, 0
1.109778000000000, 0, 1
1.109784000000000, 1, 0
1.109790000000000, 1, 1
1.109796000000000, 1, 0
1.109804000000000, 1, 1
1.109810000000000, 1, 0
1.109812000000000, 0, 0
1.109816000000000, 0, 1
1.109824000000000, 0, 0
1.109830000000000, 0, 1
1.109838000000000, 1, 0
1.109844000000000, 1, 1
1.109850000000000, 1, 0
1.109852000000000, 0, 0
1.109858000000000, 0, 1
1.109864000000000, 0, 0
1.109870000000000, 0, 1
1.109876000000000, 0, 0
1.109878000000000, 1, 0
1.109880000000000, 0, 0
1.109884000000000, 0, 1
1.109890000000000, 0, 0
1.109894000000000, 1, 0
1.109898000000000, 1, 1
1.109904000000000, 0, 0
1.109910000000000, 0, 1
1.109916000000000, 0, 0
1.109918000000000, 1, 0
1.109924000000000, 1, 1
1.109930000000000, 1, 0
1.109932000000000, 0, 0
1.109936000000000, 0, 1
1.109944000000000, 0, 0
1.109950000000000, 0, 1
1.109958000000000, 0, 0
1.109964000000000, 0, 1
1.109970000000000, 0, 0
1.109972000000000, 1, 0
1.109978000000000, 1, 1
1.109984000000000, 1, 0
1.109990000000000, 1, 1
1.109996000000000, 1, 0
1.110000000000000, 0, 0
1.110004000000000, 0, 1
1.110010000000000, 0, 0
1.110018000000000, 0, 1
1.110024000000000, 0, 0
1.110030000000000, 0, 1
1.110036000000000, 0, 0
1.110044000000000, 0, 1
1.110050000000000, 0, 0
1.110052000000000, 1, 0
1.110056000000000, 1, 1
1.110064000000000, 1, 0
1.110070000000000, 1, 1
1.110078000000000, 1, 0
1.110084000000000, 1, 1
1.110092000000000, 0, 0
1.110098000000000, 0, 1
1.110104000000000, 0, 0
1.110110000000000, 0, 1
1.110116000000000, 0, 0
1.110118000000000, 1, 0
1.110120000000000, 0, 0
1.110124000000000, 0, 1
1.110130000000000, 0, 0
1.110134000000000, 1, 0
1.110138000000000, 1, 1
1.110144000000000, 1, 0
1.110150000000000, 1, 1
1.110156000000000, 1, 0
1.110158000000000, 0, 0
1.110164000000000, 0, 1
1.110170000000000, 0, 0
1.110178000000000, 0, 1
1.110184000000000, 0, 0
1.110190000000000, 0, 1
1.110198000000000, 1, 0
1.110204000000000, 1, 1
1.110212000000000, 1, 0
1.110218000000000, 1, 1
1.110224000000000, 1, 0
1.110230000000000, 1, 1
1.110236000000000, 1, 0
1.110240000000000, 0, 0
1.110244000000000, 0, 1
1.110250000000000, 0, 0
1.110254000000000, 1, 0
1.110258000000000, 1, 1
1.110264000000000, 1, 0
1.110270000000000, 1, 1
1.110276000000000, 1, 0
1.110278000000000, 0, 0
1.110284000000000, 0, 1
1.110290000000000, 0, 0
1.110298000000000, 0, 1
1.110304000000000, 0, 0
1.110310000000000, 0, 1
1.110318000000000, 1, 0
1.110324000000000, 1, 1
1.110332000000000, 0, 0
1.110338000000000, 0, 1
1.110344000000000, 1, 0
1.110350000000000, 1, 1
1.110356000000000, 1, 0
1.110360000000000, 0, 0
1.110364000000000, 0, 1
1.110370000000000, 0, 0
1.110378000000000, 0, 1
1.110384000000000, 0, 0
1.110390000000000, 0, 1
1.110396000000000, 0, 0
1.110404000000000, 0, 1
1.110410000000000, 0, 0
1.110418000000000, 0, 1
1.110424000000000, 0, 0
1.110430000000000, 0, 1
1.110438000000000, 0, 0
1.110444000000000, 0, 1
1.110452000000000, 0, 0
1.110458000000000, 0, 1
1.110464000000000, 0, 0
1.110470000000000, 0, 1
1.110476000000000, 0, 0
1.110478000000000, 1, 0
1.110480000000000, 0, 0
1.110484000000000, 0, 1
1.110490000000000, 0, 0
1.110498000000000, 0, 1
1.110504000000000, 0, 0
1.110510000000000, 0, 1
1.110516000000000, 0, 0
1.110524000000000, 0, 1
1.110530000000000, 0, 0
1.110538000000000, 0, 1
1.110544000000000, 0, 0
1.110550000000000, 0, 1
1.110558000000000, 0, 0
1.110564000000000, 0, 1
1.110572000000000, 0, 0
1.110578000000000, 0, 1
1.110584000000000, 0, 0
1.110590000000000, 0, 1
1.110598000000000, 1, 0
1.110600000000000, 0, 0
1.110604000000000, 0, 1
1.110610000000000, 0, 0
1.110618000000000, 0, 1
1.110624000000000, 0, 0
1.110630000000000, 0, 1
1.110636000000000, 0, 0
1.110638000000000, 1, 0
1.110644000000000, 1, 1
1.110650000000000, 1, 0
1.110652000000000, 0, 0
1.110658000000000, 0, 1
1.110664000000000, 0, 0
1.110670000000000, 0, 1
1.110678000000000, 0, 0
1.110680000000000, 1, 0
1.110684000000000, 1, 1
1.110692000000000, 0, 0
1.110698000000000, 0, 1
1.110704000000000, 1, 0
1.110710000000000, 1, 1
1.110718000000000, 1, 0
1.110720000000000, 0, 0
1.110724000000000, 0, 1
1.110730000000000, 0, 0
1.110738000000000, 0, 1
1.110744000000000, 0, 0
1.110750000000000, 0, 1
1.110758000000000, 0, 0
1.110764000000000, 0, 1
1.110770000000000, 0, 0
1.110772000000000, 1, 0
1.110778000000000, 1, 1
1.110784000000000, 0, 0
1.110790000000000, 0, 1
1.110798000000000, 0, 0
1.110804000000000, 0, 1
1.110812000000000, 0, 0
1.110818000000000, 0, 1
1.110824000000000, 0, 0
1.110826000000000, 1, 0
1.110830000000000, 1, 1
1.110838000000000, 1, 0
1.110840000000000, 0, 0
1.110844000000000, 0, 1
1.110850000000000, 0, 0
1.110858000000000, 0, 1
1.110864000000000, 0, 0
1.110870000000000, 0, 1
1.110878000000000, 0, 0
1.110884000000000, 0, 1
1.110890000000000, 0, 0
1.110898000000000, 0, 1
1.110904000000000, 0, 0
1.110910000000000, 0, 1
1.110918000000000, 0, 0
1.110924000000000, 0, 1
1.110932000000000, 0, 0
1.110938000000000, 0, 1
1.110944000000000, 0, 0
1.110946000000000, 1, 0
1.110950000000000, 1, 1
1.110958000000000, 1, 0
1.110960000000000, 0, 0
1.110964000000000, 0, 1
1.110970000000000, 0, 0
1.110978000000000, 0, 1
1.110984000000000, 0, 0
1.110990000000000, 0, 1
1.110998000000000, 0, 0
1.111004000000000, 0, 1
1.111012000000000, 0, 0
1.111018000000000, 0, 1
1.111024000000000, 0, 0
1.111030000000000, 0, 1
1.111038000000000, 0, 0
1.111046000000000, 0, 1
1.111052000000000, 1, 0
1.111058000000000, 1, 1
1.111064000000000, 1, 0
1.111070000000000, 1, 1
1.111078000000000, 1, 0
1.111080000000000, 0, 0
1.111084000000000, 0, 1
1.111090000000000, 0, 0
1.111094000000000, 1, 0
1.111098000000000, 1, 1
1.111104000000000, 1, 0
1.111106000000000, 0, 0
1.111110000000000, 0, 1
1.111118000000000, 0, 0
1.111124000000000, 0, 1
1.111132000000000, 0, 0
1.111138000000000, 0, 1
1.111144000000000, 0, 0
1.111150000000000, 0, 1
1.111158000000000, 0, 0
1.111166000000000, 0, 1
1.111172000000000, 0, 0
1.111178000000000, 0, 1
1.111184000000000, 0, 0
1.111186000000000, 1, 0
1.111190000000000, 1, 1
1.111198000000000, 1, 0
1.111200000000000, 0, 0
1.111204000000000, 0, 1
1.111210000000000, 0, 0
1.111218000000000, 0, 1
1.111224000000000, 0, 0
1.111230000000000, 0, 1
1.111238000000000, 1, 0
1.111244000000000, 1, 1
1.111252000000000, 0, 0
1.111258000000000, 0, 1
1.111264000000000, 1, 0
1.111270000000000, 1, 1
1.111278000000000, 1, 0
1.111286000000000, 1, 1
1.111292000000000, 1, 0
1.111298000000000, 1, 1
1.111304000000000, 1, 0
1.111310000000000, 1, 1
1.111318000000000, 1, 0
1.111320000000000, 0, 0
1.111324000000000, 0, 1
1.111330000000000, 0, 0
1.111338000000000, 0, 1
1.111344000000000, 0, 0
1.111350000000000, 0, 1
1.111358000000000, 0, 0
1.111364000000000, 0, 1
1.111372000000000, 1, 0
1.111378000000000, 1, 1
1.111384000000000, 1, 0
1.111390000000000, 1, 1
1.111398000000000, 1, 0
1.111406000000000, 1, 1
1.111412000000000, 0, 0
1.111418000000000, 0, 1
1.111424000000000, 0, 0
1.111426000000000, 1, 0
1.111432000000000, 1, 1
1.111438000000000, 1, 0
1.111440000000000, 0, 0
1.111444000000000, 0, 1
1.111450000000000, 0, 0
1.111458000000000, 0, 1
1.111464000000000, 0, 0
1.111466000000000, 1, 0
1.111470000000000, 1, 1
1.111478000000000, 1, 0
1.111484000000000, 1, 1
1.111492000000000, 1, 0
1.111498000000000, 1, 1
1.111504000000000, 1, 0
1.111510000000000, 1, 1
1.111518000000000, 1, 0
1.111520000000000, 0, 0
1.111526000000000, 0, 1
1.111532000000000, 0, 0
1.111538000000000, 0, 1
1.111544000000000, 0, 0
1.111552000000000, 0, 1
1.111558000000000, 1, 0
1.111560000000000, 0, 0
1.111564000000000, 0, 1
1.111570000000000, 0, 0
1.111578000000000, 0, 1
1.111584000000000, 0, 0
1.111590000000000, 0, 1
1.111598000000000, 1, 0
1.111604000000000, 1, 1
1.111612000000000, 0, 0
1.111618000000000, 0, 1
1.111624000000000, 1, 0
1.111630000000000, 1, 1
1.111638000000000, 1, 0
1.111640000000000, 0, 0
1.111646000000000, 0, 1
1.111652000000000, 1, 0
1.111658000000000, 1, 1
1.111664000000000, 1, 0
1.111666000000000, 0, 0
1.111672000000000, 0, 1
1.111678000000000, 1, 0
1.111680000000000, 0, 0
1.111684000000000, 0, 1
1.111690000000000, 0, 0
1.111694000000000, 1, 0
1.111698000000000, 1, 1
1.111704000000000, 1, 0
1.111712000000000, 1, 1
1.111718000000000, 1, 0
1.111724000000000, 1, 1
1.111732000000000, 0, 0
1.111738000000000, 0, 1
1.111744000000000, 0, 0
1.111750000000000, 0, 1
1.111758000000000, 0, 0
1.111760000000000, 1, 0
1.111766000000000, 1, 1
1.111772000000000, 0, 0
1.111778000000000, 0, 1
1.111784000000000, 0, 0
1.111786000000000, 1, 0
1.111792000000000, 1, 1
1.111798000000000, 1, 0
1.111800000000000, 0, 0
1.111804000000000, 0, 1
1.111810000000000, 0, 0
1.111818000000000, 0, 1
1.111824000000000, 0, 0
1.111832000000000, 0, 1
1.111838000000000, 1, 0
1.111844000000000, 1, 1
1.111852000000000, 0, 0
1.111858000000000, 0, 1
1.111864000000000, 0, 0
1.111870000000000, 0, 1
1.111878000000000, 0, 0
1.111880000000000, 1, 0
1.111886000000000, 1, 1
1.111892000000000, 0, 0
1.111898000000000, 0, 1
1.111904000000000, 0, 0
1.111906000000000, 1, 0
1.111912000000000, 1, 1
1.111918000000000, 1, 0
1.111920000000000, 0, 0
1.111924000000000, 0, 1
1.111930000000000, 0, 0
1.111934000000000, 1, 0
1.111938000000000, 1, 1
1.111944000000000, 1, 0
1.111946000000000, 0, 0
1.111952000000000, 0, 1
1.111958000000000, 1, 0
1.111966000000000, 1, 1
1.111972000000000, 0, 0
1.111978000000000, 0, 1
1.111984000000000, 0, 0
1.111990000000000, 0, 1
1.112000000000000, 1, 0
1.112006000000000, 1, 1
1.112012000000000, 1, 0
1.112018000000000, 1, 1
1.112024000000000, 1, 0
1.112026000000000, 0, 0
1.112032000000000, 0, 1
1.112038000000000, 1, 0
1.112040000000000, 0, 0
1.112044000000000, 0, 1
1.112050000000000, 0, 0
1.112058000000000, 0, 1
1.112064000000000, 0, 0
1.112066000000000, 1, 0
1.112072000000000, 1, 1
1.112078000000000, 0, 0
1.112086000000000, 0, 1
1.112092000000000, 1, 0
1.112098000000000, 1, 1
1.112104000000000, 0, 0
1.112110000000000, 0, 1
1.112120000000000, 1, 0
1.112126000000000, 1, 1
1.112132000000000, 0, 0
1.112138000000000, 0, 1
1.112144000000000, 0, 0
1.112152000000000, 0, 1
1.112158000000000, 1, 0
1.112160000000000, 0, 0
1.112164000000000, 0, 1
1.112170000000000, 0, 0
1.112178000000000, 0, 1
1.112184000000000, 0, 0
1.112186000000000, 1, 0
1.112192000000000, 1, 1
1.112198000000000, 0, 0
1.112206000000000, 0, 1
1.112212000000000, 0, 0
1.112218000000000, 0, 1
1.112224000000000, 0, 0
1.112230000000000, 0, 1
1.112240000000000, 1, 0
1.112246000000000, 1, 1
1.112252000000000, 0, 0
1.112258000000000, 0, 1
1.112266000000000, 0, 0
1.112272000000000, 0, 1
1.112278000000000, 1, 0
1.112280000000000, 0, 0
1.112284000000000, 0, 1
1.112290000000000, 0, 0
1.112296000000000, 1, 0
1.112298000000000, 1, 1
1.112304000000000, 1, 0
1.112306000000000, 0, 0
1.112312000000000, 0, 1
1.112318000000000, 1, 0
1.112326000000000, 1, 1
1.112332000000000, 0, 0
1.112338000000000, 0, 1
1.112344000000000, 0, 0
1.112350000000000, 0, 1
1.112360000000000, 0, 0
1.112366000000000, 0, 1
1.112372000000000, 0, 0
1.112378000000000, 0, 1
1.112386000000000, 1, 0
1.112392000000000, 1, 1
1.112398000000000, 1, 0
1.112400000000000, 0, 0
1.112404000000000, 0, 1
1.112410000000000, 0, 0
1.112418000000000, 0, 1
1.112424000000000, 0, 0
1.112432000000000, 0, 1
1.112438000000000, 1, 0
1.112446000000000, 1, 1
1.112452000000000, 0, 0
1.112458000000000, 0, 1
1.112464000000000, 0, 0
1.112470000000000, 0, 1
1.112480000000000, 1, 0
1.112486000000000, 1, 1
1.112492000000000, 0, 0
1.112498000000000, 0, 1
1.112506000000000, 1, 0
1.112512000000000, 1, 1
1.112518000000000, 1, 0
1.112520000000000, 0, 0
1.112524000000000, 0, 1
1.112530000000000, 0, 0
1.112538000000000, 0, 1
1.112544000000000, 0, 0
1.112552000000000, 0, 1
1.112558000000000, 0, 0
1.112566000000000, 0, 1
1.112572000000000, 1, 0
1.112578000000000, 1, 1
1.112584000000000, 0, 0
1.112590000000000, 0, 1
