write to 0x37 ack data: 0x51 0x83 0xF3 0x00 0x00 0x4F 
read to 0x37 ack data: 0x6E 0xA3 0xE3 0x00 0x00 0x28 0x70 0x72 0x6F 0x74 0x28 0x6D 0x6F 0x6E 0x69 0x74 0x6F 0x72 0x29 0x74 0x79 0x70 0x65 0x28 0x4C 0x43 0x44 0x29 0x6D 0x6F 0x64 0x65 0x6C 0x28 0x48 0x47 0x32 0x0A
write to 0x37 ack data: 0x51 0x83 0xF3 0x00 0x20 0x6F 
read to 0x37 ack data: 0x6E 0xA3 0xE3 0x00 0x20 0x31 0x36 0x29 0x63 0x6D 0x64 0x73 0x28 0x30 0x31 0x20 0x30 0x33 0x20 0x30 0x37 0x20 0x30 0x43 0x20 0x46 0x33 0x29 0x76 0x63 0x70 0x28 0x30 0x34 0x20 0x30 0x35 0x07
write to 0x37 ack data: 0x51 0x83 0xF3 0x00 0x40 0x0F 
read to 0x37 ack data: 0x6E 0xA3 0xE3 0x00 0x40 0x20 0x30 0x38 0x20 0x31 0x30 0x20 0x31 0x32 0x20 0x31 0x34 0x28 0x30 0x34 0x20 0x30 0x35 0x20 0x30 0x38 0x20 0x30 0x42 0x29 0x20 0x31 0x36 0x20 0x31 0x38 0x20 0x45
write to 0x37 ack data: 0x51 0x83 0xF3 0x00 0x60 0x2F 
read to 0x37 ack data: 0x6E 0xA3 0xE3 0x00 0x60 0x31 0x41 0x20 0x36 0x30 0x28 0x30 0x31 0x20 0x30 0x33 0x29 0x20 0x38 0x37 0x20 0x42 0x36 0x20 0x44 0x46 0x29 0x6D 0x63 0x63 0x73 0x5F 0x76 0x65 0x72 0x28 0x32 0x21
write to 0x37 ack data: 0x51 0x83 0xF3 0x00 0x80 0xCF 
read to 0x37 ack data: 0x6E 0x9E 0xE3 0x00 0x80 0x2E 0x31 0x29 0x61 0x73 0x73 0x65 0x74 0x5F 0x65 0x65 0x70 0x28 0x33 0x32 0x29 0x6D 0x70 0x75 0x28 0x31 0x2E 0x30 0x32 0x29 0x29 0x00 0xF7 0x00 0x00 0x00 0x00 0x00
write to 0x37 ack data: 0x51 0x83 0xF3 0x00 0x9B 0xD4 
read to 0x37 ack data: 0x6E 0x83 0xE3 0x00 0x9B 0xC5 0x00 0x00 0x00 0x00 0x00 0x00 0x00 0x00 0x00 0x00 0x00 0x00 0x00 0x00 0x00 0x00 0x00 0x00 0x00 0x00 0x00 0x00 0x00 0x00 0x00 0x00 0x00 0x00 0x00 0x00 0x00 0x00
write to 0x37 ack data: 0x51 0x82 0x01 0x04 0xB8 
read to 0x37 ack data: 0x6E 0x88 0x02 0x00 0x04 0x00 0x00 0x01 0x00 0x00 0xB1
write to 0x37 ack data: 0x51 0x82 0x01 0x05 0xB9 
read to 0x37 ack data: 0x6E 0x88 0x02 0x00 0x05 0x00 0x00 0x01 0x00 0x00 0xB0
write to 0x37 ack data: 0x51 0x82 0x01 0x08 0xB4 
read to 0x37 ack data: 0x6E 0x88 0x02 0x00 0x08 0x00 0x00 0x01 0x00 0x00 0xBD
write to 0x37 ack data: 0x51 0x82 0x01 0x10 0xAC 
read to 0x37 ack data: 0x6E 0x88 0x02 0x00 0x10 0x00 0x00 0x64 0x00 0x50 0x90
write to 0x37 ack data: 0x51 0x82 0x01 0x12 0xAE 
read to 0x37 ack data: 0x6E 0x88 0x02 0x00 0x12 0x00 0x00 0x64 0x00 0x4B 0x89
write to 0x37 ack data: 0x51 0x82 0x01 0x14 0xA8 
read to 0x37 ack data: 0x6E 0x88 0x02 0x00 0x14 0x00 0x00 0x64 0x00 0x08 0xCC
write to 0x37 ack data: 0x51 0x82 0x01 0x16 0xAA 
read to 0x37 ack data: 0x6E 0x88 0x02 0x00 0x16 0x00 0x00 0x64 0x00 0x5C 0x9A
write to 0x37 ack data: 0x51 0x82 0x01 0x18 0xA4 
read to 0x37 ack data: 0x6E 0x88 0x02 0x00 0x18 0x00 0x00 0x64 0x00 0x58 0x90
write to 0x37 ack data: 0x51 0x82 0x01 0x1A 0xA6 
read to 0x37 ack data: 0x6E 0x88 0x02 0x00 0x1A 0x00 0x00 0x64 0x00 0x64 0xAE
write to 0x37 ack data: 0x51 0x82 0x01 0x60 0xDC 
read to 0x37 ack data: 0x6E 0x88 0x02 0x00 0x60 0x00 0x00 0x64 0x00 0x03 0xB3
write to 0x37 ack data: 0x51 0x82 0x01 0x87 0x3B 
read to 0x37 ack data: 0x6E 0x88 0x02 0x00 0x87 0x00 0x00 0x06 0x00 0x03 0x36
write to 0x37 ack data: 0x51 0x82 0x01 0xB6 0x0A 
read to 0x37 ack data: 0x6E 0x88 0x02 0x00 0xB6 0x00 0x00 0x05 0x00 0x03 0x04
write to 0x37 ack data: 0x51 0x82 0x01 0xDF 0x63 
read to 0x37 ack data: 0x6E 0x88 0x02 0x00 0xDF 0x00 0xFF 0xFF 0x02 0x01 0x68






























